
T1C20 000:362 SEGGER J-Link V4.96d Log File (0001ms, 0274ms total)
T1C20 000:362 DLL Compiled: Jan 29 2015 11:45:37 (0001ms, 0274ms total)
T1C20 000:362 Logging started @ 2018-11-12 11:46 (0001ms, 0274ms total)
T1C20 000:363 JLINK_SetWarnOutHandler(...) (0000ms, 0274ms total)
T1C20 000:363 JLINK_OpenEx(...)
Firmware: J-Link V9 compiled Jul 19 2017 16:11:45
Hardware: V9.40
S/N: 59404904
Feature(s): RDI, GDB, FlashDL, FlashBP, JFlash  returns O.K. (0266ms, 0540ms total)
T1C20 000:629 JLINK_SetErrorOutHandler(...) (0000ms, 0540ms total)
T1C20 000:629 JLINK_ExecCommand("ProjectFile = "C:\Users\Administrator\Desktop\ÏîÄ¿\¾øÔµ²âÊÔ__ÄÍÑ¹²âÊÔ(2500)\ÄÍÑ¹¼ì²âV1.72(11.12)\USER\JLinkSettings.ini"", ...)  returns 0x00 (0000ms, 0540ms total)
T1C20 000:629 JLINK_ExecCommand("Device = STM32F103ZE", ...)Device "STM32F103ZE" selected.  returns 0x00 (0001ms, 0541ms total)
T1C20 000:630 JLINK_ExecCommand("DisableConnectionTimeout", ...)  returns 0x01 (0000ms, 0541ms total)
T1C20 000:630 JLINK_GetHardwareVersion()  returns 0x16F30 (0000ms, 0541ms total)
T1C20 000:630 JLINK_GetDLLVersion()  returns 49604 (0000ms, 0541ms total)
T1C20 000:630 JLINK_GetFirmwareString(...) (0000ms, 0541ms total)
T1C20 000:631 JLINK_GetDLLVersion()  returns 49604 (0000ms, 0541ms total)
T1C20 000:631 JLINK_GetCompileDateTime() (0001ms, 0542ms total)
T1C20 000:632 JLINK_GetFirmwareString(...) (0000ms, 0542ms total)
T1C20 000:632 JLINK_GetHardwareVersion()  returns 0x16F30 (0000ms, 0542ms total)
T1C20 000:633 JLINK_TIF_Select(JLINKARM_TIF_SWD)  returns 0x00 (0000ms, 0542ms total)
T1C20 000:633 JLINK_SetSpeed(20000) (0000ms, 0542ms total)
T1C20 000:633 JLINK_GetId() >0x108 TIF>Found SWD-DP with ID 0x1BA01477 >0x0D TIF> >0x28 TIF> >0x0D TIF> >0x28 TIF> >0x0D TIF> >0x21 TIF> >0x0D TIF> >0x28 TIF> >0x0D TIF> >0x28 TIF> >0x0D TIF> >0x28 TIF> >0x0D TIF> >0x21 TIF> >0x0D TIF> >0x21 TIF> >0x0D TIF> >0x28 TIF> >0x0D TIF> >0x21 TIF> >0x0D TIF> >0x21 TIF> >0x108 TIF>Found SWD-DP with ID 0x1BA01477 >0x0D TIF> >0x21 TIF> >0x0D TIF> >0x28 TIF> >0x0D TIF> >0x28 TIF> >0x0D TIF> >0x21 TIF> >0x0D TIF> >0x28 TIF> >0x0D TIF> >0x21 TIF> >0x0D TIF> >0x21 TIF>
 >0x0D TIF> >0x21 TIF> >0x0D TIF> >0x21 TIF> >0x0D TIF> >0x28 TIF> >0x0D TIF> >0x28 TIF> >0x0D TIF> >0x21 TIF> >0x0D TIF> >0x28 TIF> >0x0D TIF> >0x28 TIF> >0x0D TIF> >0x28 TIF> >0x0D TIF> >0x21 TIF> >0x0D TIF> >0x21 TIF> >0x0D TIF> >0x28 TIF> >0x0D TIF> >0x21 TIF> >0x0D TIF> >0x21 TIF>Found Cortex-M3 r1p1, Little endian. -- CPU_WriteMem(4 bytes @ 0xE0002000) -- CPU_ReadMem(4 bytes @ 0xE000EDF0) -- CPU_ReadMem(4 bytes @ 0xE0002000)FPUnit: 6 code (BP) slots and 2 literal slots
 -- CPU_ReadMem(4 bytes @ 0xE000EDFC) -- CPU_ReadMem(4 bytes @ 0xE0001000) -- CPU_WriteMem(4 bytes @ 0xE0001000) -- CPU_ReadMem(4 bytes @ 0xE000ED88) -- CPU_WriteMem(4 bytes @ 0xE000ED88) -- CPU_ReadMem(4 bytes @ 0xE000ED88) -- CPU_WriteMem(4 bytes @ 0xE000ED88) -- CPU_ReadMem(4 bytes @ 0xE00FF010)TPIU fitted. -- CPU_ReadMem(4 bytes @ 0xE00FF014)ETM fitted. -- CPU_ReadMem(4 bytes @ 0xE00FF018) >0x0D TIF> >0x21 TIF>  returns 0x1BA01477 (0018ms, 0560ms total)
T1C20 000:651 JLINK_GetDLLVersion()  returns 49604 (0000ms, 0560ms total)
T1C20 000:651 JLINK_CORE_GetFound()  returns 0x30000FF (0000ms, 0560ms total)
T1C20 000:651 JLINK_GetDebugInfo(0x100) -- Value=0xE00FF003  returns 0x00 (0000ms, 0560ms total)
T1C20 000:652 JLINK_ReadMem (0xE00FF000, 0x0020 Bytes, ...) -- CPU is running -- CPU_ReadMem(32 bytes @ 0xE00FF000) - Data: 03 F0 F0 FF 03 20 F0 FF 03 30 F0 FF 03 10 F0 FF ...  returns 0x00 (0000ms, 0560ms total)
T1C20 000:652 JLINK_ReadMem (0xE000EFF0, 0x0010 Bytes, ...) -- CPU is running -- CPU_ReadMem(16 bytes @ 0xE000EFF0) - Data: 0D 00 00 00 E0 00 00 00 05 00 00 00 B1 00 00 00  returns 0x00 (0000ms, 0560ms total)
T1C20 000:652 JLINK_ReadMem (0xE000EFD0, 0x0020 Bytes, ...) -- CPU is running -- CPU_ReadMem(32 bytes @ 0xE000EFD0) - Data: 04 00 00 00 00 00 00 00 00 00 00 00 00 00 00 00 ...  returns 0x00 (0001ms, 0561ms total)
T1C20 000:653 JLINK_ReadMem (0xE0001FF0, 0x0010 Bytes, ...) -- CPU is running -- CPU_ReadMem(16 bytes @ 0xE0001FF0) - Data: 0D 00 00 00 E0 00 00 00 05 00 00 00 B1 00 00 00  returns 0x00 (0000ms, 0561ms total)
T1C20 000:653 JLINK_ReadMem (0xE0001FD0, 0x0020 Bytes, ...) -- CPU is running -- CPU_ReadMem(32 bytes @ 0xE0001FD0) - Data: 04 00 00 00 00 00 00 00 00 00 00 00 00 00 00 00 ...  returns 0x00 (0000ms, 0561ms total)
T1C20 000:653 JLINK_ReadMem (0xE0002FF0, 0x0010 Bytes, ...) -- CPU is running -- CPU_ReadMem(16 bytes @ 0xE0002FF0) - Data: 0D 00 00 00 E0 00 00 00 05 00 00 00 B1 00 00 00  returns 0x00 (0001ms, 0562ms total)
T1C20 000:654 JLINK_ReadMem (0xE0002FD0, 0x0020 Bytes, ...) -- CPU is running -- CPU_ReadMem(32 bytes @ 0xE0002FD0) - Data: 04 00 00 00 00 00 00 00 00 00 00 00 00 00 00 00 ...  returns 0x00 (0000ms, 0562ms total)
T1C20 000:654 JLINK_ReadMem (0xE0000FF0, 0x0010 Bytes, ...) -- CPU is running -- CPU_ReadMem(16 bytes @ 0xE0000FF0) - Data: 0D 00 00 00 E0 00 00 00 05 00 00 00 B1 00 00 00  returns 0x00 (0000ms, 0562ms total)
T1C20 000:654 JLINK_ReadMem (0xE0000FD0, 0x0020 Bytes, ...) -- CPU is running -- CPU_ReadMem(32 bytes @ 0xE0000FD0) - Data: 04 00 00 00 00 00 00 00 00 00 00 00 00 00 00 00 ...  returns 0x00 (0001ms, 0563ms total)
T1C20 000:655 JLINK_ReadMem (0xE0040FF0, 0x0010 Bytes, ...) -- CPU is running -- CPU_ReadMem(16 bytes @ 0xE0040FF0) - Data: 0D 00 00 00 90 00 00 00 05 00 00 00 B1 00 00 00  returns 0x00 (0000ms, 0563ms total)
T1C20 000:655 JLINK_ReadMem (0xE0040FD0, 0x0020 Bytes, ...) -- CPU is running -- CPU_ReadMem(32 bytes @ 0xE0040FD0) - Data: 04 00 00 00 00 00 00 00 00 00 00 00 00 00 00 00 ...  returns 0x00 (0000ms, 0563ms total)
T1C20 000:655 JLINK_ReadMem (0xE0041FF0, 0x0010 Bytes, ...) -- CPU is running -- CPU_ReadMem(16 bytes @ 0xE0041FF0) - Data: 0D 00 00 00 90 00 00 00 05 00 00 00 B1 00 00 00  returns 0x00 (0001ms, 0564ms total)
T1C20 000:656 JLINK_ReadMem (0xE0041FD0, 0x0020 Bytes, ...) -- CPU is running -- CPU_ReadMem(32 bytes @ 0xE0041FD0) - Data: 04 00 00 00 00 00 00 00 00 00 00 00 00 00 00 00 ...  returns 0x00 (0000ms, 0564ms total)
T1C20 000:656 JLINK_ReadMemU32(0xE000ED00, 0x0001 Items, ...) -- CPU is running -- CPU_ReadMem(4 bytes @ 0xE000ED00) - Data: 31 C2 1F 41  returns 0x01 (0000ms, 0564ms total)
T1C20 000:656 JLINK_SetResetType(JLINKARM_RESET_TYPE_NORMAL)  returns JLINKARM_RESET_TYPE_NORMAL (0000ms, 0564ms total)
T1C20 000:656 JLINK_Reset() -- CPU is running -- CPU_WriteMem(4 bytes @ 0xE000EDF0) -- CPU is running -- CPU_WriteMem(4 bytes @ 0xE000EDFC) >0x35 TIF> -- CPU is running -- CPU_WriteMem(4 bytes @ 0xE000ED0C) -- CPU is running -- CPU_ReadMem(4 bytes @ 0xE000EDF0) -- CPU is running -- CPU_ReadMem(4 bytes @ 0xE000EDF0) -- CPU is running -- CPU_WriteMem(4 bytes @ 0xE000EDF0) -- CPU is running -- CPU_WriteMem(4 bytes @ 0xE000EDFC) -- CPU is running -- CPU_ReadMem(4 bytes @ 0xE000EDF0)
 -- CPU_WriteMem(4 bytes @ 0xE0002000) -- CPU_ReadMem(4 bytes @ 0xE000EDFC) -- CPU_ReadMem(4 bytes @ 0xE0001000) (0014ms, 0578ms total)
T1C20 000:670 JLINK_ReadReg(R15 (PC))  returns 0x08000278 (0000ms, 0578ms total)
T1C20 000:670 JLINK_ReadReg(XPSR)  returns 0x01000000 (0000ms, 0578ms total)
T1C20 000:670 JLINK_Halt()  returns 0x00 (0000ms, 0578ms total)
T1C20 000:670 JLINK_IsHalted()  returns TRUE (0000ms, 0578ms total)
T1C20 000:670 JLINK_ReadMemU32(0xE000EDF0, 0x0001 Items, ...) -- CPU_ReadMem(4 bytes @ 0xE000EDF0) - Data: 03 00 03 00  returns 0x01 (0001ms, 0579ms total)
T1C20 000:671 JLINK_WriteU32(0xE000EDF0, 0xA05F0003) -- CPU_WriteMem(4 bytes @ 0xE000EDF0)  returns 0x00 (0000ms, 0579ms total)
T1C20 000:671 JLINK_WriteU32(0xE000EDFC, 0x01000000) -- CPU_WriteMem(4 bytes @ 0xE000EDFC)  returns 0x00 (0000ms, 0579ms total)
T1C20 000:672 JLINK_GetHWStatus(...)  returns 0x00 (0000ms, 0579ms total)
T1C20 000:673 JLINK_GetNumBPUnits(Type = 0xFFFFFF00)  returns 0x06 (0000ms, 0579ms total)
T1C20 000:673 JLINK_GetNumBPUnits(Type = 0xF0)  returns 0x2000 (0000ms, 0579ms total)
T1C20 000:673 JLINK_GetNumWPUnits()  returns 0x04 (0000ms, 0579ms total)
T1C20 000:673 JLINK_GetSpeed()  returns 0x2EE0 (0000ms, 0579ms total)
T1C20 000:674 JLINK_ReadMemU32(0xE000E004, 0x0001 Items, ...) -- CPU_ReadMem(4 bytes @ 0xE000E004) - Data: 01 00 00 00  returns 0x01 (0000ms, 0579ms total)
T1C20 000:674 JLINK_ReadMemU32(0xE000E004, 0x0001 Items, ...) -- CPU_ReadMem(4 bytes @ 0xE000E004) - Data: 01 00 00 00  returns 0x01 (0000ms, 0579ms total)
T1C20 000:674 JLINK_WriteMem(0xE0001000, 0x001C Bytes, ...) - Data: 01 00 00 00 00 00 00 00 00 00 00 00 00 00 00 00 ... -- CPU_WriteMem(28 bytes @ 0xE0001000)  returns 0x1C (0002ms, 0581ms total)
T1C20 000:676 JLINK_ReadMem (0xE0001000, 0x001C Bytes, ...) -- CPU_ReadMem(28 bytes @ 0xE0001000) - Data: 01 00 00 40 00 00 00 00 00 00 00 00 00 00 00 00 ...  returns 0x00 (0000ms, 0581ms total)
T1C20 000:676 JLINK_ReadReg(R15 (PC))  returns 0x08000278 (0000ms, 0581ms total)
T1C20 000:676 JLINK_ReadReg(XPSR)  returns 0x01000000 (0000ms, 0581ms total)
T1C20 000:792 JLINK_SetResetType(JLINKARM_RESET_TYPE_NORMAL)  returns JLINKARM_RESET_TYPE_NORMAL (0001ms, 0582ms total)
T1C20 000:793 JLINK_Reset() -- CPU_WriteMem(4 bytes @ 0xE000EDF0) -- CPU_WriteMem(4 bytes @ 0xE000EDFC) >0x35 TIF> -- CPU_WriteMem(4 bytes @ 0xE000ED0C) -- CPU_ReadMem(4 bytes @ 0xE000EDF0) -- CPU_ReadMem(4 bytes @ 0xE000EDF0) -- CPU_WriteMem(4 bytes @ 0xE000EDF0) -- CPU_WriteMem(4 bytes @ 0xE000EDFC) -- CPU is running -- CPU_ReadMem(4 bytes @ 0xE000EDF0) -- CPU_WriteMem(4 bytes @ 0xE0002000) -- CPU_ReadMem(4 bytes @ 0xE000EDFC) -- CPU_ReadMem(4 bytes @ 0xE0001000) (0016ms, 0598ms total)
T1C20 000:810 JLINK_ReadReg(R15 (PC))  returns 0x08000278 (0000ms, 0599ms total)
T1C20 000:810 JLINK_ReadReg(XPSR)  returns 0x01000000 (0000ms, 0599ms total)
T1C20 000:811 JLINK_ReadMem (0x08000278, 0x003C Bytes, ...) -- CPU_ReadMem(128 bytes @ 0x08000240) -- Updating C cache (128 bytes @ 0x08000240) -- Read from C cache (60 bytes @ 0x08000278) - Data: 09 48 80 47 09 48 00 47 FE E7 FE E7 FE E7 FE E7 ...  returns 0x00 (0001ms, 0600ms total)
T5884 002:177 JLINK_SetBPEx(Addr = 0x08008248, Type = 0xFFFFFFF2)  returns 0x00000001 (0000ms, 0600ms total)
T5884 002:177 JLINK_SetBPEx(Addr = 0x08008318, Type = 0xFFFFFFF2)  returns 0x00000002 (0000ms, 0600ms total)
T5884 002:177 JLINK_Go() -- CPU_WriteMem(4 bytes @ 0xE0002000) -- CPU_WriteMem(4 bytes @ 0xE0002000) -- CPU_WriteMem(4 bytes @ 0xE0002008) -- CPU_WriteMem(4 bytes @ 0xE000200C) -- CPU_WriteMem(4 bytes @ 0xE0002010) -- CPU_WriteMem(4 bytes @ 0xE0002014) -- CPU_WriteMem(4 bytes @ 0xE0002018) -- CPU_WriteMem(4 bytes @ 0xE000201C) -- CPU_WriteMem(4 bytes @ 0xE0001004) (0003ms, 0603ms total)
T5884 002:281 JLINK_IsHalted()  returns TRUE (0001ms, 0604ms total)
T5884 002:282 JLINK_Halt()  returns 0x00 (0000ms, 0603ms total)
T5884 002:282 JLINK_IsHalted()  returns TRUE (0000ms, 0603ms total)
T5884 002:282 JLINK_IsHalted()  returns TRUE (0000ms, 0603ms total)
T5884 002:282 JLINK_IsHalted()  returns TRUE (0000ms, 0603ms total)
T5884 002:282 JLINK_ReadReg(R15 (PC))  returns 0x08008248 (0000ms, 0603ms total)
T5884 002:282 JLINK_ReadReg(XPSR)  returns 0x61000000 (0000ms, 0603ms total)
T5884 002:282 JLINK_ClrBPEx(BPHandle = 0x00000001)  returns 0x00 (0000ms, 0603ms total)
T5884 002:282 JLINK_ClrBPEx(BPHandle = 0x00000002)  returns 0x00 (0000ms, 0603ms total)
T5884 002:282 JLINK_ReadMemU32(0xE000ED30, 0x0001 Items, ...) -- CPU_ReadMem(4 bytes @ 0xE000ED30) - Data: 02 00 00 00  returns 0x01 (0001ms, 0604ms total)
T5884 002:283 JLINK_ReadMemU32(0xE0001028, 0x0001 Items, ...) -- CPU_ReadMem(4 bytes @ 0xE0001028) - Data: 00 00 00 00  returns 0x01 (0000ms, 0604ms total)
T5884 002:283 JLINK_ReadMemU32(0xE0001038, 0x0001 Items, ...) -- CPU_ReadMem(4 bytes @ 0xE0001038) - Data: 00 02 00 00  returns 0x01 (0000ms, 0604ms total)
T5884 002:284 JLINK_ReadMemU32(0xE0001048, 0x0001 Items, ...) -- CPU_ReadMem(4 bytes @ 0xE0001048) - Data: 00 00 00 00  returns 0x01 (0000ms, 0604ms total)
T5884 002:284 JLINK_ReadMemU32(0xE0001058, 0x0001 Items, ...) -- CPU_ReadMem(4 bytes @ 0xE0001058) - Data: 00 00 00 00  returns 0x01 (0000ms, 0604ms total)
T5884 002:284 JLINK_ReadReg(R0)  returns 0x200000C0 (0000ms, 0604ms total)
T5884 002:284 JLINK_ReadReg(R1)  returns 0x200002C0 (0000ms, 0604ms total)
T5884 002:284 JLINK_ReadReg(R2)  returns 0x200002C0 (0001ms, 0605ms total)
T5884 002:285 JLINK_ReadReg(R3)  returns 0x200002C0 (0000ms, 0605ms total)
T5884 002:285 JLINK_ReadReg(R4)  returns 0x00000000 (0000ms, 0605ms total)
T5884 002:285 JLINK_ReadReg(R5)  returns 0x2000005C (0000ms, 0605ms total)
T5884 002:285 JLINK_ReadReg(R6)  returns 0x00000000 (0000ms, 0605ms total)
T5884 002:285 JLINK_ReadReg(R7)  returns 0x00000000 (0000ms, 0605ms total)
T5884 002:285 JLINK_ReadReg(R8)  returns 0x00000000 (0000ms, 0605ms total)
T5884 002:285 JLINK_ReadReg(R9)  returns 0x00000001 (0000ms, 0605ms total)
T5884 002:285 JLINK_ReadReg(R10)  returns 0x0800C378 (0000ms, 0605ms total)
T5884 002:285 JLINK_ReadReg(R11)  returns 0x00000000 (0000ms, 0605ms total)
T5884 002:285 JLINK_ReadReg(R12)  returns 0x2000009C (0000ms, 0605ms total)
T5884 002:285 JLINK_ReadReg(R13 (SP))  returns 0x200006C0 (0000ms, 0605ms total)
T5884 002:285 JLINK_ReadReg(R14)  returns 0x08000267 (0000ms, 0605ms total)
T5884 002:285 JLINK_ReadReg(R15 (PC))  returns 0x08008248 (0000ms, 0605ms total)
T5884 002:285 JLINK_ReadReg(XPSR)  returns 0x61000000 (0000ms, 0605ms total)
T5884 002:285 JLINK_ReadReg(MSP)  returns 0x200006C0 (0000ms, 0605ms total)
T5884 002:285 JLINK_ReadReg(PSP)  returns 0x20001000 (0000ms, 0605ms total)
T5884 002:285 JLINK_ReadReg(CFBP)  returns 0x00000000 (0000ms, 0605ms total)
T1C20 002:286 JLINK_ReadMemU32(0xE0001004, 0x0001 Items, ...) -- CPU_ReadMem(4 bytes @ 0xE0001004) - Data: 8C 15 00 00  returns 0x01 (0001ms, 0606ms total)
T1C20 002:311 JLINK_ReadMem (0x08008248, 0x003C Bytes, ...) -- CPU_ReadMem(128 bytes @ 0x08008240) -- Updating C cache (128 bytes @ 0x08008240) -- Read from C cache (60 bytes @ 0x08008248) - Data: AD F5 04 7D 00 24 00 26 A1 46 00 27 00 20 05 90 ...  returns 0x00 (0001ms, 0607ms total)
T1C20 002:337 JLINK_ReadMem (0x08008216, 0x0002 Bytes, ...) -- CPU_ReadMem(64 bytes @ 0x08008200) -- Updating C cache (64 bytes @ 0x08008200) -- Read from C cache (2 bytes @ 0x08008216) - Data: 40 F2  returns 0x00 (0000ms, 0607ms total)
T1C20 002:337 JLINK_ReadMem (0x08008218, 0x003C Bytes, ...) -- Read from C cache (60 bytes @ 0x08008218) - Data: CF 10 0A 49 08 80 00 F0 75 F9 F9 F7 AB FC 00 24 ...  returns 0x00 (0000ms, 0607ms total)
T1C20 007:090 JLINK_ReadMem (0x200006A8, 0x0001 Bytes, ...) -- CPU_ReadMem(64 bytes @ 0x20000680) -- Updating C cache (64 bytes @ 0x20000680) -- Read from C cache (1 bytes @ 0x200006A8) - Data: C0  returns 0x00 (0001ms, 0608ms total)
T5884 028:577 JLINK_SetBPEx(Addr = 0x08008318, Type = 0xFFFFFFF2)  returns 0x00000003 (0000ms, 0608ms total)
T5884 028:577 JLINK_Go() -- CPU_WriteMem(4 bytes @ 0xE0002000) -- CPU_WriteMem(4 bytes @ 0xE0002008) -- CPU_WriteMem(4 bytes @ 0xE000200C) (0002ms, 0610ms total)
T5884 028:680 JLINK_IsHalted()  returns FALSE (0000ms, 0610ms total)
T5884 028:782 JLINK_IsHalted()  returns FALSE (0000ms, 0610ms total)
T5884 028:883 JLINK_IsHalted()  returns FALSE (0000ms, 0610ms total)
T5884 028:984 JLINK_IsHalted()  returns FALSE (0000ms, 0610ms total)
T5884 029:085 JLINK_IsHalted()  returns FALSE (0000ms, 0610ms total)
T5884 029:187 JLINK_IsHalted()  returns FALSE (0000ms, 0610ms total)
T5884 029:288 JLINK_IsHalted()  returns FALSE (0000ms, 0610ms total)
T5884 029:390 JLINK_IsHalted()  returns FALSE (0000ms, 0610ms total)
T5884 029:491 JLINK_IsHalted()  returns FALSE (0000ms, 0610ms total)
T5884 029:592 JLINK_IsHalted()  returns FALSE (0001ms, 0611ms total)
T5884 029:694 JLINK_IsHalted()  returns FALSE (0000ms, 0610ms total)
T5884 029:795 JLINK_IsHalted()  returns FALSE (0000ms, 0610ms total)
T5884 029:896 JLINK_IsHalted()  returns FALSE (0000ms, 0610ms total)
T5884 029:997 JLINK_IsHalted()  returns FALSE (0000ms, 0610ms total)
T5884 030:098 JLINK_IsHalted()  returns FALSE (0000ms, 0610ms total)
T5884 030:200 JLINK_IsHalted()  returns FALSE (0000ms, 0610ms total)
T5884 030:301 JLINK_IsHalted()  returns FALSE (0000ms, 0610ms total)
T5884 030:403 JLINK_IsHalted()  returns FALSE (0000ms, 0610ms total)
T5884 030:504 JLINK_IsHalted()  returns FALSE (0000ms, 0610ms total)
T5884 030:605 JLINK_IsHalted()  returns FALSE (0001ms, 0611ms total)
T5884 030:707 JLINK_IsHalted()  returns FALSE (0000ms, 0610ms total)
T5884 030:808 JLINK_IsHalted()  returns FALSE (0000ms, 0610ms total)
T5884 030:909 JLINK_IsHalted()  returns FALSE (0000ms, 0610ms total)
T5884 031:009 JLINK_IsHalted()  returns FALSE (0000ms, 0610ms total)
T5884 031:110 JLINK_IsHalted()  returns FALSE (0000ms, 0610ms total)
T5884 031:211 JLINK_IsHalted()  returns FALSE (0000ms, 0610ms total)
T5884 031:313 JLINK_IsHalted()  returns FALSE (0000ms, 0610ms total)
T5884 031:414 JLINK_IsHalted()  returns FALSE (0000ms, 0610ms total)
T5884 031:516 JLINK_IsHalted()  returns FALSE (0000ms, 0610ms total)
T5884 031:617 JLINK_IsHalted()  returns FALSE (0000ms, 0610ms total)
T5884 031:718 JLINK_IsHalted()  returns FALSE (0000ms, 0610ms total)
T5884 031:819 JLINK_IsHalted()  returns FALSE (0000ms, 0610ms total)
T5884 031:919 JLINK_IsHalted()  returns FALSE (0000ms, 0610ms total)
T5884 032:021 JLINK_IsHalted()  returns FALSE (0000ms, 0610ms total)
T5884 032:122 JLINK_IsHalted()  returns FALSE (0000ms, 0610ms total)
T5884 032:223 JLINK_IsHalted()  returns FALSE (0000ms, 0610ms total)
T5884 032:325 JLINK_IsHalted()  returns FALSE (0000ms, 0610ms total)
T5884 032:425 JLINK_IsHalted()  returns FALSE (0000ms, 0610ms total)
T5884 032:526 JLINK_IsHalted()  returns FALSE (0000ms, 0610ms total)
T5884 032:627 JLINK_IsHalted()  returns FALSE (0001ms, 0611ms total)
T5884 032:729 JLINK_IsHalted()  returns FALSE (0000ms, 0610ms total)
T5884 032:830 JLINK_IsHalted()  returns FALSE (0000ms, 0610ms total)
T5884 032:931 JLINK_IsHalted()  returns FALSE (0000ms, 0610ms total)
T5884 033:033 JLINK_IsHalted()  returns FALSE (0000ms, 0610ms total)
T5884 033:135 JLINK_IsHalted()  returns FALSE (0000ms, 0610ms total)
T5884 033:236 JLINK_IsHalted()  returns FALSE (0000ms, 0610ms total)
T5884 033:337 JLINK_IsHalted()  returns FALSE (0000ms, 0610ms total)
T5884 033:437 JLINK_IsHalted()  returns FALSE (0000ms, 0610ms total)
T5884 033:539 JLINK_IsHalted()  returns FALSE (0000ms, 0610ms total)
T5884 033:640 JLINK_IsHalted()  returns FALSE (0000ms, 0610ms total)
T5884 033:742 JLINK_IsHalted()  returns FALSE (0000ms, 0610ms total)
T5884 033:844 JLINK_IsHalted()  returns FALSE (0000ms, 0610ms total)
T5884 033:945 JLINK_IsHalted()  returns FALSE (0000ms, 0610ms total)
T5884 034:046 JLINK_IsHalted()  returns FALSE (0000ms, 0610ms total)
T5884 034:147 JLINK_IsHalted()  returns FALSE (0000ms, 0610ms total)
T5884 034:247 JLINK_IsHalted()  returns FALSE (0000ms, 0610ms total)
T5884 034:348 JLINK_IsHalted()  returns FALSE (0000ms, 0610ms total)
T5884 034:449 JLINK_IsHalted()  returns FALSE (0000ms, 0610ms total)
T5884 034:551 JLINK_IsHalted()  returns FALSE (0000ms, 0610ms total)
T5884 034:652 JLINK_IsHalted()  returns FALSE (0000ms, 0610ms total)
T5884 034:753 JLINK_IsHalted()  returns FALSE (0000ms, 0610ms total)
T5884 034:854 JLINK_IsHalted()  returns FALSE (0000ms, 0610ms total)
T5884 034:955 JLINK_IsHalted()  returns FALSE (0000ms, 0610ms total)
T5884 035:057 JLINK_IsHalted()  returns FALSE (0000ms, 0610ms total)
T5884 035:158 JLINK_IsHalted()  returns FALSE (0000ms, 0610ms total)
T5884 035:259 JLINK_IsHalted()  returns FALSE (0000ms, 0610ms total)
T5884 035:360 JLINK_IsHalted()  returns FALSE (0000ms, 0610ms total)
T5884 035:461 JLINK_IsHalted()  returns FALSE (0000ms, 0610ms total)
T5884 035:563 JLINK_IsHalted()  returns FALSE (0000ms, 0610ms total)
T5884 035:664 JLINK_IsHalted()  returns FALSE (0001ms, 0611ms total)
T5884 035:765 JLINK_IsHalted()  returns FALSE (0000ms, 0610ms total)
T5884 035:867 JLINK_IsHalted()  returns FALSE (0000ms, 0610ms total)
T5884 035:968 JLINK_IsHalted()  returns FALSE (0000ms, 0610ms total)
T5884 036:069 JLINK_IsHalted()  returns FALSE (0000ms, 0610ms total)
T5884 036:170 JLINK_IsHalted()  returns FALSE (0000ms, 0610ms total)
T5884 036:271 JLINK_IsHalted()  returns FALSE (0000ms, 0610ms total)
T5884 036:372 JLINK_IsHalted()  returns FALSE (0000ms, 0610ms total)
T5884 036:474 JLINK_IsHalted()  returns FALSE (0000ms, 0610ms total)
T5884 036:574 JLINK_IsHalted()  returns FALSE (0000ms, 0610ms total)
T5884 036:675 JLINK_IsHalted()  returns FALSE (0001ms, 0611ms total)
T5884 036:777 JLINK_IsHalted()  returns FALSE (0000ms, 0610ms total)
T5884 036:878 JLINK_IsHalted()  returns FALSE (0000ms, 0610ms total)
T5884 036:979 JLINK_IsHalted()  returns FALSE (0000ms, 0610ms total)
T5884 037:080 JLINK_IsHalted()  returns FALSE (0000ms, 0610ms total)
T5884 037:182 JLINK_IsHalted()  returns FALSE (0000ms, 0610ms total)
T5884 037:284 JLINK_IsHalted()  returns FALSE (0000ms, 0610ms total)
T5884 037:385 JLINK_IsHalted()  returns FALSE (0000ms, 0610ms total)
T5884 037:486 JLINK_IsHalted()  returns FALSE (0000ms, 0610ms total)
T5884 037:587 JLINK_IsHalted()  returns FALSE (0000ms, 0610ms total)
T5884 037:689 JLINK_IsHalted()  returns FALSE (0000ms, 0610ms total)
T5884 037:790 JLINK_IsHalted()  returns FALSE (0000ms, 0610ms total)
T5884 037:891 JLINK_IsHalted()  returns FALSE (0000ms, 0610ms total)
T5884 037:992 JLINK_IsHalted()  returns FALSE (0000ms, 0610ms total)
T5884 038:093 JLINK_IsHalted()  returns FALSE (0000ms, 0610ms total)
T5884 038:194 JLINK_IsHalted()  returns FALSE (0000ms, 0610ms total)
T5884 038:296 JLINK_IsHalted()  returns FALSE (0000ms, 0610ms total)
T5884 038:397 JLINK_Halt()  returns 0x00 (0002ms, 0612ms total)
T5884 038:399 JLINK_IsHalted()  returns TRUE (0000ms, 0612ms total)
T5884 038:399 JLINK_IsHalted()  returns TRUE (0000ms, 0612ms total)
T5884 038:399 JLINK_IsHalted()  returns TRUE (0000ms, 0612ms total)
T5884 038:399 JLINK_ReadReg(R15 (PC))  returns 0x0800800A (0000ms, 0612ms total)
T5884 038:399 JLINK_ReadReg(XPSR)  returns 0x61000000 (0000ms, 0612ms total)
T5884 038:399 JLINK_ClrBPEx(BPHandle = 0x00000003)  returns 0x00 (0000ms, 0612ms total)
T5884 038:400 JLINK_ReadMemU32(0xE000ED30, 0x0001 Items, ...) -- CPU_ReadMem(4 bytes @ 0xE000ED30) - Data: 01 00 00 00  returns 0x01 (0000ms, 0612ms total)
T5884 038:400 JLINK_ReadMemU32(0xE0001028, 0x0001 Items, ...) -- CPU_ReadMem(4 bytes @ 0xE0001028) - Data: 00 00 00 00  returns 0x01 (0001ms, 0613ms total)
T5884 038:401 JLINK_ReadMemU32(0xE0001038, 0x0001 Items, ...) -- CPU_ReadMem(4 bytes @ 0xE0001038) - Data: 00 02 00 00  returns 0x01 (0000ms, 0613ms total)
T5884 038:401 JLINK_ReadMemU32(0xE0001048, 0x0001 Items, ...) -- CPU_ReadMem(4 bytes @ 0xE0001048) - Data: 00 00 00 00  returns 0x01 (0001ms, 0614ms total)
T5884 038:402 JLINK_ReadMemU32(0xE0001058, 0x0001 Items, ...) -- CPU_ReadMem(4 bytes @ 0xE0001058) - Data: 00 00 00 00  returns 0x01 (0001ms, 0615ms total)
T5884 038:403 JLINK_ReadReg(R0)  returns 0x00000001 (0000ms, 0615ms total)
T5884 038:403 JLINK_ReadReg(R1)  returns 0x000003E8 (0000ms, 0615ms total)
T5884 038:403 JLINK_ReadReg(R2)  returns 0x00000000 (0000ms, 0615ms total)
T5884 038:403 JLINK_ReadReg(R3)  returns 0xE000E000 (0000ms, 0615ms total)
T5884 038:403 JLINK_ReadReg(R4)  returns 0x00000005 (0001ms, 0616ms total)
T5884 038:404 JLINK_ReadReg(R5)  returns 0x00000001 (0000ms, 0616ms total)
T5884 038:404 JLINK_ReadReg(R6)  returns 0x00000000 (0000ms, 0616ms total)
T5884 038:404 JLINK_ReadReg(R7)  returns 0x00000002 (0000ms, 0616ms total)
T5884 038:404 JLINK_ReadReg(R8)  returns 0x00000000 (0000ms, 0616ms total)
T5884 038:404 JLINK_ReadReg(R9)  returns 0x00000001 (0000ms, 0616ms total)
T5884 038:404 JLINK_ReadReg(R10)  returns 0x00000000 (0000ms, 0616ms total)
T5884 038:404 JLINK_ReadReg(R11)  returns 0x00000000 (0000ms, 0616ms total)
T5884 038:404 JLINK_ReadReg(R12)  returns 0x407EC000 (0001ms, 0617ms total)
T5884 038:405 JLINK_ReadReg(R13 (SP))  returns 0x200004B0 (0000ms, 0617ms total)
T5884 038:405 JLINK_ReadReg(R14)  returns 0x0800832F (0000ms, 0617ms total)
T5884 038:405 JLINK_ReadReg(R15 (PC))  returns 0x0800800A (0000ms, 0617ms total)
T5884 038:405 JLINK_ReadReg(XPSR)  returns 0x61000000 (0000ms, 0617ms total)
T5884 038:405 JLINK_ReadReg(MSP)  returns 0x200004B0 (0000ms, 0617ms total)
T5884 038:405 JLINK_ReadReg(PSP)  returns 0x20001000 (0000ms, 0617ms total)
T5884 038:405 JLINK_ReadReg(CFBP)  returns 0x00000000 (0000ms, 0617ms total)
T1C20 038:410 JLINK_ReadMemU32(0xE0001004, 0x0001 Items, ...) -- CPU_ReadMem(4 bytes @ 0xE0001004) - Data: 5E E7 22 2A  returns 0x01 (0001ms, 0618ms total)
T1C20 038:431 JLINK_ReadMem (0x0800800A, 0x0002 Bytes, ...) -- CPU_ReadMem(64 bytes @ 0x08008000) -- Updating C cache (64 bytes @ 0x08008000) -- Read from C cache (2 bytes @ 0x0800800A) - Data: 00 2A  returns 0x00 (0001ms, 0619ms total)
T1C20 038:433 JLINK_ReadMem (0x0800800C, 0x003C Bytes, ...) -- CPU_ReadMem(64 bytes @ 0x08008040) -- Updating C cache (64 bytes @ 0x08008040) -- Read from C cache (60 bytes @ 0x0800800C) - Data: F5 D0 4F F0 E0 22 12 69 22 F0 01 02 4F F0 E0 23 ...  returns 0x00 (0000ms, 0619ms total)
T1C20 038:470 JLINK_ReadMem (0x08007FFA, 0x0002 Bytes, ...) -- CPU_ReadMem(64 bytes @ 0x08007FC0) -- Updating C cache (64 bytes @ 0x08007FC0) -- Read from C cache (2 bytes @ 0x08007FFA) - Data: 4F F0  returns 0x00 (0001ms, 0621ms total)
T1C20 038:471 JLINK_ReadMem (0x08007FFC, 0x0004 Bytes, ...) -- Read from C cache (4 bytes @ 0x08007FFC) - Data: E0 22 10 69  returns 0x00 (0000ms, 0621ms total)
T1C20 038:471 JLINK_ReadMem (0x08008000, 0x0038 Bytes, ...) -- Read from C cache (56 bytes @ 0x08008000) - Data: 00 F0 01 02 1A B1 00 F4 80 32 00 2A F5 D0 4F F0 ...  returns 0x00 (0000ms, 0621ms total)
T5884 041:241 JLINK_SetBPEx(Addr = 0x0800832E, Type = 0xFFFFFFF2)  returns 0x00000004 (0000ms, 0621ms total)
T5884 041:241 JLINK_SetBPEx(Addr = 0x08008318, Type = 0xFFFFFFF2)  returns 0x00000005 (0000ms, 0621ms total)
T5884 041:241 JLINK_Go() -- CPU_WriteMem(4 bytes @ 0xE0002000) -- CPU_WriteMem(4 bytes @ 0xE0002000) -- CPU_WriteMem(4 bytes @ 0xE0002008) -- CPU_WriteMem(4 bytes @ 0xE000200C) (0002ms, 0623ms total)
T5884 041:343 JLINK_IsHalted()  returns FALSE (0000ms, 0623ms total)
T5884 041:445 JLINK_IsHalted()  returns FALSE (0000ms, 0623ms total)
T5884 041:547 JLINK_IsHalted()  returns FALSE (0000ms, 0623ms total)
T5884 041:648 JLINK_IsHalted()  returns FALSE (0000ms, 0623ms total)
T5884 041:749 JLINK_IsHalted()  returns FALSE (0000ms, 0623ms total)
T5884 041:850 JLINK_IsHalted()  returns TRUE (0002ms, 0625ms total)
T5884 041:852 JLINK_Halt()  returns 0x00 (0000ms, 0623ms total)
T5884 041:852 JLINK_IsHalted()  returns TRUE (0000ms, 0623ms total)
T5884 041:852 JLINK_IsHalted()  returns TRUE (0000ms, 0623ms total)
T5884 041:852 JLINK_IsHalted()  returns TRUE (0000ms, 0623ms total)
T5884 041:852 JLINK_ReadReg(R15 (PC))  returns 0x0800832E (0000ms, 0623ms total)
T5884 041:852 JLINK_ReadReg(XPSR)  returns 0x61000000 (0001ms, 0624ms total)
T5884 041:853 JLINK_ClrBPEx(BPHandle = 0x00000004)  returns 0x00 (0000ms, 0624ms total)
T5884 041:853 JLINK_ClrBPEx(BPHandle = 0x00000005)  returns 0x00 (0000ms, 0624ms total)
T5884 041:853 JLINK_ReadMemU32(0xE000ED30, 0x0001 Items, ...) -- CPU_ReadMem(4 bytes @ 0xE000ED30) - Data: 02 00 00 00  returns 0x01 (0001ms, 0625ms total)
T5884 041:854 JLINK_ReadMemU32(0xE0001028, 0x0001 Items, ...) -- CPU_ReadMem(4 bytes @ 0xE0001028) - Data: 00 00 00 00  returns 0x01 (0000ms, 0625ms total)
T5884 041:854 JLINK_ReadMemU32(0xE0001038, 0x0001 Items, ...) -- CPU_ReadMem(4 bytes @ 0xE0001038) - Data: 00 02 00 00  returns 0x01 (0001ms, 0626ms total)
T5884 041:855 JLINK_ReadMemU32(0xE0001048, 0x0001 Items, ...) -- CPU_ReadMem(4 bytes @ 0xE0001048) - Data: 00 00 00 00  returns 0x01 (0000ms, 0626ms total)
T5884 041:855 JLINK_ReadMemU32(0xE0001058, 0x0001 Items, ...) -- CPU_ReadMem(4 bytes @ 0xE0001058) - Data: 00 00 00 00  returns 0x01 (0001ms, 0627ms total)
T5884 041:856 JLINK_ReadReg(R0)  returns 0x00010001 (0000ms, 0627ms total)
T5884 041:856 JLINK_ReadReg(R1)  returns 0x000003E8 (0000ms, 0627ms total)
T5884 041:856 JLINK_ReadReg(R2)  returns 0x00000000 (0000ms, 0627ms total)
T5884 041:857 JLINK_ReadReg(R3)  returns 0xE000E000 (0000ms, 0628ms total)
T5884 041:857 JLINK_ReadReg(R4)  returns 0x00000005 (0000ms, 0628ms total)
T5884 041:857 JLINK_ReadReg(R5)  returns 0x00000001 (0000ms, 0628ms total)
T5884 041:857 JLINK_ReadReg(R6)  returns 0x00000000 (0000ms, 0628ms total)
T5884 041:857 JLINK_ReadReg(R7)  returns 0x00000002 (0000ms, 0628ms total)
T5884 041:857 JLINK_ReadReg(R8)  returns 0x00000000 (0000ms, 0628ms total)
T5884 041:857 JLINK_ReadReg(R9)  returns 0x00000001 (0000ms, 0628ms total)
T5884 041:857 JLINK_ReadReg(R10)  returns 0x00000000 (0001ms, 0629ms total)
T5884 041:858 JLINK_ReadReg(R11)  returns 0x00000000 (0000ms, 0629ms total)
T5884 041:858 JLINK_ReadReg(R12)  returns 0x407EC000 (0000ms, 0629ms total)
T5884 041:858 JLINK_ReadReg(R13 (SP))  returns 0x200004B0 (0000ms, 0629ms total)
T5884 041:858 JLINK_ReadReg(R14)  returns 0x0800832F (0000ms, 0629ms total)
T5884 041:858 JLINK_ReadReg(R15 (PC))  returns 0x0800832E (0000ms, 0629ms total)
T5884 041:858 JLINK_ReadReg(XPSR)  returns 0x61000000 (0000ms, 0629ms total)
T5884 041:858 JLINK_ReadReg(MSP)  returns 0x200004B0 (0000ms, 0629ms total)
T5884 041:858 JLINK_ReadReg(PSP)  returns 0x20001000 (0000ms, 0629ms total)
T5884 041:859 JLINK_ReadReg(CFBP)  returns 0x00000000 (0000ms, 0630ms total)
T1C20 041:862 JLINK_ReadMemU32(0xE0001004, 0x0001 Items, ...) -- CPU_ReadMem(4 bytes @ 0xE0001004) - Data: 32 7C A6 2C  returns 0x01 (0001ms, 0631ms total)
T1C20 041:886 JLINK_ReadMem (0x0800832E, 0x0002 Bytes, ...) -- CPU_ReadMem(64 bytes @ 0x08008300) -- Updating C cache (64 bytes @ 0x08008300) -- Read from C cache (2 bytes @ 0x0800832E) - Data: 00 BF  returns 0x00 (0001ms, 0632ms total)
T1C20 041:887 JLINK_ReadMem (0x08008330, 0x003C Bytes, ...) -- CPU_ReadMem(64 bytes @ 0x08008340) -- Updating C cache (64 bytes @ 0x08008340) -- Read from C cache (60 bytes @ 0x08008330) - Data: 60 1C C4 B2 11 2C 97 DB 01 24 C2 E0 00 27 08 E0 ...  returns 0x00 (0001ms, 0633ms total)
T1C20 041:916 JLINK_ReadMem (0x08008248, 0x003C Bytes, ...) -- CPU_ReadMem(128 bytes @ 0x08008240) -- Updating C cache (128 bytes @ 0x08008240) -- Read from C cache (60 bytes @ 0x08008248) - Data: AD F5 04 7D 00 24 00 26 A1 46 00 27 00 20 05 90 ...  returns 0x00 (0001ms, 0634ms total)
T5884 048:728 JLINK_Step() -- Read from C cache (2 bytes @ 0x0800832E) -- Simulated  returns 0x00 (0000ms, 0634ms total)
T5884 048:729 JLINK_ReadReg(R15 (PC))  returns 0x08008330 (0000ms, 0634ms total)
T5884 048:729 JLINK_ReadReg(XPSR)  returns 0x61000000 (0000ms, 0634ms total)
T5884 048:729 JLINK_ReadReg(R0)  returns 0x00010001 (0000ms, 0634ms total)
T5884 048:729 JLINK_ReadReg(R1)  returns 0x000003E8 (0000ms, 0634ms total)
T5884 048:729 JLINK_ReadReg(R2)  returns 0x00000000 (0000ms, 0634ms total)
T5884 048:729 JLINK_ReadReg(R3)  returns 0xE000E000 (0000ms, 0634ms total)
T5884 048:729 JLINK_ReadReg(R4)  returns 0x00000005 (0000ms, 0634ms total)
T5884 048:729 JLINK_ReadReg(R5)  returns 0x00000001 (0000ms, 0634ms total)
T5884 048:729 JLINK_ReadReg(R6)  returns 0x00000000 (0000ms, 0634ms total)
T5884 048:729 JLINK_ReadReg(R7)  returns 0x00000002 (0000ms, 0634ms total)
T5884 048:729 JLINK_ReadReg(R8)  returns 0x00000000 (0000ms, 0634ms total)
T5884 048:729 JLINK_ReadReg(R9)  returns 0x00000001 (0000ms, 0634ms total)
T5884 048:729 JLINK_ReadReg(R10)  returns 0x00000000 (0000ms, 0634ms total)
T5884 048:729 JLINK_ReadReg(R11)  returns 0x00000000 (0000ms, 0634ms total)
T5884 048:729 JLINK_ReadReg(R12)  returns 0x407EC000 (0000ms, 0634ms total)
T5884 048:729 JLINK_ReadReg(R13 (SP))  returns 0x200004B0 (0000ms, 0634ms total)
T5884 048:729 JLINK_ReadReg(R14)  returns 0x0800832F (0000ms, 0634ms total)
T5884 048:729 JLINK_ReadReg(R15 (PC))  returns 0x08008330 (0000ms, 0634ms total)
T5884 048:729 JLINK_ReadReg(XPSR)  returns 0x61000000 (0000ms, 0634ms total)
T5884 048:729 JLINK_ReadReg(MSP)  returns 0x200004B0 (0001ms, 0635ms total)
T5884 048:730 JLINK_ReadReg(PSP)  returns 0x20001000 (0000ms, 0635ms total)
T5884 048:730 JLINK_ReadReg(CFBP)  returns 0x00000000 (0000ms, 0635ms total)
T1C20 048:733 JLINK_ReadMemU32(0xE0001004, 0x0001 Items, ...) - Data: 32 7C A6 2C  returns 0x01 (0000ms, 0635ms total)
T1C20 048:740 JLINK_ReadMem (0x08008330, 0x003C Bytes, ...) -- Read from C cache (60 bytes @ 0x08008330) - Data: 60 1C C4 B2 11 2C 97 DB 01 24 C2 E0 00 27 08 E0 ...  returns 0x00 (0000ms, 0635ms total)
T1C20 048:749 JLINK_ReadMem (0x08008264, 0x003C Bytes, ...) -- Read from C cache (60 bytes @ 0x08008264) - Data: 01 24 65 E0 00 27 0B E0 38 46 79 1C CF B2 7E A9 ...  returns 0x00 (0000ms, 0635ms total)
T1C20 133:198 JLINK_ReadMem (0x200006AA, 0x0001 Bytes, ...) -- CPU_ReadMem(64 bytes @ 0x20000680) -- Updating C cache (64 bytes @ 0x20000680) -- Read from C cache (1 bytes @ 0x200006AA) - Data: 00  returns 0x00 (0001ms, 0636ms total)
T5884 175:800 JLINK_Step() -- Read from C cache (2 bytes @ 0x08008330) -- Simulated  returns 0x00 (0001ms, 0637ms total)
T5884 175:801 JLINK_ReadReg(R15 (PC))  returns 0x08008332 (0000ms, 0637ms total)
T5884 175:801 JLINK_ReadReg(XPSR)  returns 0x01000000 (0000ms, 0637ms total)
T5884 175:801 JLINK_Step() -- Read from C cache (2 bytes @ 0x08008332) -- Simulated  returns 0x00 (0000ms, 0637ms total)
T5884 175:801 JLINK_ReadReg(R15 (PC))  returns 0x08008334 (0000ms, 0637ms total)
T5884 175:801 JLINK_ReadReg(XPSR)  returns 0x01000000 (0000ms, 0637ms total)
T5884 175:801 JLINK_Step() -- Read from C cache (2 bytes @ 0x08008334) -- Simulated  returns 0x00 (0000ms, 0637ms total)
T5884 175:801 JLINK_ReadReg(R15 (PC))  returns 0x08008336 (0000ms, 0637ms total)
T5884 175:801 JLINK_ReadReg(XPSR)  returns 0x81000000 (0000ms, 0637ms total)
T5884 175:801 JLINK_Step() -- Read from C cache (2 bytes @ 0x08008336) -- Simulated  returns 0x00 (0000ms, 0637ms total)
T5884 175:801 JLINK_ReadReg(R15 (PC))  returns 0x08008268 (0000ms, 0637ms total)
T5884 175:801 JLINK_ReadReg(XPSR)  returns 0x81000000 (0000ms, 0637ms total)
T5884 175:801 JLINK_ReadReg(R0)  returns 0x00000006 (0000ms, 0637ms total)
T5884 175:801 JLINK_ReadReg(R1)  returns 0x000003E8 (0000ms, 0637ms total)
T5884 175:801 JLINK_ReadReg(R2)  returns 0x00000000 (0000ms, 0637ms total)
T5884 175:801 JLINK_ReadReg(R3)  returns 0xE000E000 (0000ms, 0637ms total)
T5884 175:801 JLINK_ReadReg(R4)  returns 0x00000006 (0000ms, 0637ms total)
T5884 175:801 JLINK_ReadReg(R5)  returns 0x00000001 (0001ms, 0638ms total)
T5884 175:802 JLINK_ReadReg(R6)  returns 0x00000000 (0000ms, 0638ms total)
T5884 175:802 JLINK_ReadReg(R7)  returns 0x00000002 (0000ms, 0638ms total)
T5884 175:802 JLINK_ReadReg(R8)  returns 0x00000000 (0000ms, 0638ms total)
T5884 175:802 JLINK_ReadReg(R9)  returns 0x00000001 (0000ms, 0638ms total)
T5884 175:802 JLINK_ReadReg(R10)  returns 0x00000000 (0000ms, 0638ms total)
T5884 175:802 JLINK_ReadReg(R11)  returns 0x00000000 (0000ms, 0638ms total)
T5884 175:802 JLINK_ReadReg(R12)  returns 0x407EC000 (0000ms, 0638ms total)
T5884 175:802 JLINK_ReadReg(R13 (SP))  returns 0x200004B0 (0000ms, 0638ms total)
T5884 175:802 JLINK_ReadReg(R14)  returns 0x0800832F (0000ms, 0638ms total)
T5884 175:802 JLINK_ReadReg(R15 (PC))  returns 0x08008268 (0000ms, 0638ms total)
T5884 175:802 JLINK_ReadReg(XPSR)  returns 0x81000000 (0000ms, 0638ms total)
T5884 175:802 JLINK_ReadReg(MSP)  returns 0x200004B0 (0000ms, 0638ms total)
T5884 175:802 JLINK_ReadReg(PSP)  returns 0x20001000 (0000ms, 0638ms total)
T5884 175:802 JLINK_ReadReg(CFBP)  returns 0x00000000 (0000ms, 0638ms total)
T1C20 175:805 JLINK_ReadMemU32(0xE0001004, 0x0001 Items, ...) - Data: 32 7C A6 2C  returns 0x01 (0000ms, 0638ms total)
T1C20 175:810 JLINK_ReadMem (0x08008268, 0x003C Bytes, ...) -- Read from C cache (60 bytes @ 0x08008268) - Data: 00 27 0B E0 38 46 79 1C CF B2 7E A9 08 5C A0 42 ...  returns 0x00 (0000ms, 0638ms total)
T5884 187:304 JLINK_Step() -- Read from C cache (2 bytes @ 0x08008268) -- Simulated  returns 0x00 (0001ms, 0639ms total)
T5884 187:305 JLINK_ReadReg(R15 (PC))  returns 0x0800826A (0000ms, 0639ms total)
T5884 187:305 JLINK_ReadReg(XPSR)  returns 0x41000000 (0000ms, 0639ms total)
T5884 187:305 JLINK_Step() -- Read from C cache (2 bytes @ 0x0800826A) -- Simulated  returns 0x00 (0001ms, 0640ms total)
T5884 187:306 JLINK_ReadReg(R15 (PC))  returns 0x08008284 (0000ms, 0640ms total)
T5884 187:306 JLINK_ReadReg(XPSR)  returns 0x41000000 (0000ms, 0640ms total)
T5884 187:306 JLINK_Step() -- Read from C cache (2 bytes @ 0x08008284) -- Simulated  returns 0x00 (0000ms, 0640ms total)
T5884 187:306 JLINK_ReadReg(R15 (PC))  returns 0x08008286 (0000ms, 0640ms total)
T5884 187:306 JLINK_ReadReg(XPSR)  returns 0x81000000 (0000ms, 0640ms total)
T5884 187:306 JLINK_Step() -- Read from C cache (2 bytes @ 0x08008286) -- Simulated  returns 0x00 (0000ms, 0640ms total)
T5884 187:306 JLINK_ReadReg(R15 (PC))  returns 0x0800826C (0000ms, 0640ms total)
T5884 187:306 JLINK_ReadReg(XPSR)  returns 0x81000000 (0000ms, 0640ms total)
T5884 187:306 JLINK_ReadReg(R0)  returns 0x00000006 (0000ms, 0640ms total)
T5884 187:306 JLINK_ReadReg(R1)  returns 0x000003E8 (0000ms, 0640ms total)
T5884 187:306 JLINK_ReadReg(R2)  returns 0x00000000 (0000ms, 0640ms total)
T5884 187:306 JLINK_ReadReg(R3)  returns 0xE000E000 (0000ms, 0640ms total)
T5884 187:306 JLINK_ReadReg(R4)  returns 0x00000006 (0000ms, 0640ms total)
T5884 187:306 JLINK_ReadReg(R5)  returns 0x00000001 (0000ms, 0640ms total)
T5884 187:306 JLINK_ReadReg(R6)  returns 0x00000000 (0000ms, 0640ms total)
T5884 187:306 JLINK_ReadReg(R7)  returns 0x00000000 (0000ms, 0640ms total)
T5884 187:306 JLINK_ReadReg(R8)  returns 0x00000000 (0000ms, 0640ms total)
T5884 187:306 JLINK_ReadReg(R9)  returns 0x00000001 (0001ms, 0641ms total)
T5884 187:307 JLINK_ReadReg(R10)  returns 0x00000000 (0000ms, 0641ms total)
T5884 187:307 JLINK_ReadReg(R11)  returns 0x00000000 (0000ms, 0641ms total)
T5884 187:307 JLINK_ReadReg(R12)  returns 0x407EC000 (0000ms, 0641ms total)
T5884 187:307 JLINK_ReadReg(R13 (SP))  returns 0x200004B0 (0000ms, 0641ms total)
T5884 187:307 JLINK_ReadReg(R14)  returns 0x0800832F (0000ms, 0641ms total)
T5884 187:307 JLINK_ReadReg(R15 (PC))  returns 0x0800826C (0000ms, 0641ms total)
T5884 187:307 JLINK_ReadReg(XPSR)  returns 0x81000000 (0000ms, 0641ms total)
T5884 187:307 JLINK_ReadReg(MSP)  returns 0x200004B0 (0000ms, 0641ms total)
T5884 187:307 JLINK_ReadReg(PSP)  returns 0x20001000 (0000ms, 0641ms total)
T5884 187:307 JLINK_ReadReg(CFBP)  returns 0x00000000 (0000ms, 0641ms total)
T1C20 187:310 JLINK_ReadMemU32(0xE0001004, 0x0001 Items, ...) - Data: 32 7C A6 2C  returns 0x01 (0000ms, 0641ms total)
T1C20 187:315 JLINK_ReadMem (0x0800826C, 0x003C Bytes, ...) -- Read from C cache (60 bytes @ 0x0800826C) - Data: 38 46 79 1C CF B2 7E A9 08 5C A0 42 02 D1 4F F0 ...  returns 0x00 (0001ms, 0642ms total)
T5884 191:296 JLINK_Step() -- Read from C cache (2 bytes @ 0x0800826C) -- Simulated  returns 0x00 (0000ms, 0642ms total)
T5884 191:296 JLINK_ReadReg(R15 (PC))  returns 0x0800826E (0000ms, 0642ms total)
T5884 191:296 JLINK_ReadReg(XPSR)  returns 0x81000000 (0000ms, 0642ms total)
T5884 191:296 JLINK_Step() -- Read from C cache (2 bytes @ 0x0800826E) -- Simulated  returns 0x00 (0001ms, 0643ms total)
T5884 191:297 JLINK_ReadReg(R15 (PC))  returns 0x08008270 (0000ms, 0643ms total)
T5884 191:297 JLINK_ReadReg(XPSR)  returns 0x01000000 (0000ms, 0643ms total)
T5884 191:297 JLINK_Step() -- Read from C cache (2 bytes @ 0x08008270) -- Simulated  returns 0x00 (0000ms, 0643ms total)
T5884 191:297 JLINK_ReadReg(R15 (PC))  returns 0x08008272 (0000ms, 0643ms total)
T5884 191:297 JLINK_ReadReg(XPSR)  returns 0x01000000 (0000ms, 0643ms total)
T5884 191:297 JLINK_Step() -- Read from C cache (2 bytes @ 0x08008272) -- Simulated  returns 0x00 (0000ms, 0643ms total)
T5884 191:297 JLINK_ReadReg(R15 (PC))  returns 0x08008274 (0000ms, 0643ms total)
T5884 191:297 JLINK_ReadReg(XPSR)  returns 0x01000000 (0000ms, 0643ms total)
T5884 191:297 JLINK_Step() -- Read from C cache (2 bytes @ 0x08008274) -- Read from C cache (1 bytes @ 0x200006A8) -- Simulated  returns 0x00 (0000ms, 0643ms total)
T5884 191:297 JLINK_ReadReg(R15 (PC))  returns 0x08008276 (0000ms, 0643ms total)
T5884 191:297 JLINK_ReadReg(XPSR)  returns 0x01000000 (0000ms, 0643ms total)
T5884 191:297 JLINK_Step() -- Read from C cache (2 bytes @ 0x08008276) -- Simulated  returns 0x00 (0000ms, 0643ms total)
T5884 191:297 JLINK_ReadReg(R15 (PC))  returns 0x08008278 (0001ms, 0644ms total)
T5884 191:298 JLINK_ReadReg(XPSR)  returns 0x81000000 (0000ms, 0644ms total)
T5884 191:298 JLINK_Step() -- Read from C cache (2 bytes @ 0x08008278) -- Simulated  returns 0x00 (0000ms, 0644ms total)
T5884 191:298 JLINK_ReadReg(R15 (PC))  returns 0x08008280 (0000ms, 0644ms total)
T5884 191:298 JLINK_ReadReg(XPSR)  returns 0x81000000 (0000ms, 0644ms total)
T5884 191:298 JLINK_Step() -- Read from C cache (2 bytes @ 0x08008280) -- Simulated  returns 0x00 (0000ms, 0644ms total)
T5884 191:298 JLINK_ReadReg(R15 (PC))  returns 0x08008282 (0000ms, 0644ms total)
T5884 191:298 JLINK_ReadReg(XPSR)  returns 0x01000000 (0000ms, 0644ms total)
T5884 191:298 JLINK_Step() -- Read from C cache (2 bytes @ 0x08008282) -- Simulated  returns 0x00 (0000ms, 0644ms total)
T5884 191:298 JLINK_ReadReg(R15 (PC))  returns 0x08008284 (0000ms, 0644ms total)
T5884 191:298 JLINK_ReadReg(XPSR)  returns 0x01000000 (0000ms, 0644ms total)
T5884 191:298 JLINK_Step() -- Read from C cache (2 bytes @ 0x08008284) -- Simulated  returns 0x00 (0000ms, 0644ms total)
T5884 191:298 JLINK_ReadReg(R15 (PC))  returns 0x08008286 (0000ms, 0644ms total)
T5884 191:298 JLINK_ReadReg(XPSR)  returns 0x21000000 (0000ms, 0644ms total)
T5884 191:298 JLINK_Step() -- Read from C cache (2 bytes @ 0x08008286) -- Simulated  returns 0x00 (0000ms, 0644ms total)
T5884 191:299 JLINK_ReadReg(R15 (PC))  returns 0x08008288 (0000ms, 0645ms total)
T5884 191:299 JLINK_ReadReg(XPSR)  returns 0x21000000 (0000ms, 0645ms total)
T5884 191:299 JLINK_Step() -- Read from C cache (2 bytes @ 0x08008288) -- Simulated  returns 0x00 (0000ms, 0645ms total)
T5884 191:299 JLINK_ReadReg(R15 (PC))  returns 0x0800828A (0000ms, 0645ms total)
T5884 191:299 JLINK_ReadReg(XPSR)  returns 0x21000000 (0000ms, 0645ms total)
T5884 191:299 JLINK_ReadReg(R0)  returns 0x00000002 (0000ms, 0645ms total)
T5884 191:299 JLINK_ReadReg(R1)  returns 0x200006A8 (0000ms, 0645ms total)
T5884 191:299 JLINK_ReadReg(R2)  returns 0x00000000 (0000ms, 0645ms total)
T5884 191:299 JLINK_ReadReg(R3)  returns 0xE000E000 (0000ms, 0645ms total)
T5884 191:299 JLINK_ReadReg(R4)  returns 0x00000006 (0000ms, 0645ms total)
T5884 191:299 JLINK_ReadReg(R5)  returns 0x00000001 (0000ms, 0645ms total)
T5884 191:299 JLINK_ReadReg(R6)  returns 0x00000000 (0000ms, 0645ms total)
T5884 191:299 JLINK_ReadReg(R7)  returns 0x00000002 (0000ms, 0645ms total)
T5884 191:299 JLINK_ReadReg(R8)  returns 0x00000000 (0000ms, 0645ms total)
T5884 191:299 JLINK_ReadReg(R9)  returns 0x00000001 (0000ms, 0645ms total)
T5884 191:299 JLINK_ReadReg(R10)  returns 0x00000000 (0000ms, 0645ms total)
T5884 191:299 JLINK_ReadReg(R11)  returns 0x00000000 (0001ms, 0646ms total)
T5884 191:300 JLINK_ReadReg(R12)  returns 0x407EC000 (0000ms, 0646ms total)
T5884 191:300 JLINK_ReadReg(R13 (SP))  returns 0x200004B0 (0000ms, 0646ms total)
T5884 191:300 JLINK_ReadReg(R14)  returns 0x0800832F (0000ms, 0646ms total)
T5884 191:300 JLINK_ReadReg(R15 (PC))  returns 0x0800828A (0000ms, 0646ms total)
T5884 191:300 JLINK_ReadReg(XPSR)  returns 0x21000000 (0000ms, 0646ms total)
T5884 191:300 JLINK_ReadReg(MSP)  returns 0x200004B0 (0000ms, 0646ms total)
T5884 191:300 JLINK_ReadReg(PSP)  returns 0x20001000 (0000ms, 0646ms total)
T5884 191:300 JLINK_ReadReg(CFBP)  returns 0x00000000 (0000ms, 0646ms total)
T1C20 191:302 JLINK_ReadMemU32(0xE0001004, 0x0001 Items, ...) - Data: 32 7C A6 2C  returns 0x01 (0000ms, 0646ms total)
T1C20 191:306 JLINK_ReadMem (0x0800828A, 0x0002 Bytes, ...) -- Read from C cache (2 bytes @ 0x0800828A) - Data: BA F1  returns 0x00 (0000ms, 0646ms total)
T1C20 191:306 JLINK_ReadMem (0x0800828C, 0x003C Bytes, ...) -- CPU_ReadMem(64 bytes @ 0x080082C0) -- Updating C cache (64 bytes @ 0x080082C0) -- Read from C cache (60 bytes @ 0x0800828C) - Data: 00 0F 02 D0 4F F0 00 0A 4C E0 F9 F7 BF FB 04 90 ...  returns 0x00 (0001ms, 0647ms total)
T5884 191:785 JLINK_Step() -- Read from C cache (2 bytes @ 0x0800828A) -- Read from C cache (2 bytes @ 0x0800828C) -- Simulated  returns 0x00 (0000ms, 0647ms total)
T5884 191:785 JLINK_ReadReg(R15 (PC))  returns 0x0800828E (0000ms, 0647ms total)
T5884 191:785 JLINK_ReadReg(XPSR)  returns 0x61000000 (0000ms, 0647ms total)
T5884 191:785 JLINK_Step() -- Read from C cache (2 bytes @ 0x0800828E) -- Simulated  returns 0x00 (0000ms, 0647ms total)
T5884 191:785 JLINK_ReadReg(R15 (PC))  returns 0x08008296 (0000ms, 0647ms total)
T5884 191:785 JLINK_ReadReg(XPSR)  returns 0x61000000 (0000ms, 0647ms total)
T5884 191:785 JLINK_ReadReg(R0)  returns 0x00000002 (0000ms, 0647ms total)
T5884 191:786 JLINK_ReadReg(R1)  returns 0x200006A8 (0000ms, 0648ms total)
T5884 191:786 JLINK_ReadReg(R2)  returns 0x00000000 (0000ms, 0648ms total)
T5884 191:786 JLINK_ReadReg(R3)  returns 0xE000E000 (0000ms, 0648ms total)
T5884 191:786 JLINK_ReadReg(R4)  returns 0x00000006 (0000ms, 0648ms total)
T5884 191:786 JLINK_ReadReg(R5)  returns 0x00000001 (0000ms, 0648ms total)
T5884 191:786 JLINK_ReadReg(R6)  returns 0x00000000 (0000ms, 0648ms total)
T5884 191:786 JLINK_ReadReg(R7)  returns 0x00000002 (0000ms, 0648ms total)
T5884 191:786 JLINK_ReadReg(R8)  returns 0x00000000 (0000ms, 0648ms total)
T5884 191:786 JLINK_ReadReg(R9)  returns 0x00000001 (0000ms, 0648ms total)
T5884 191:786 JLINK_ReadReg(R10)  returns 0x00000000 (0000ms, 0648ms total)
T5884 191:786 JLINK_ReadReg(R11)  returns 0x00000000 (0000ms, 0648ms total)
T5884 191:786 JLINK_ReadReg(R12)  returns 0x407EC000 (0000ms, 0648ms total)
T5884 191:786 JLINK_ReadReg(R13 (SP))  returns 0x200004B0 (0000ms, 0648ms total)
T5884 191:786 JLINK_ReadReg(R14)  returns 0x0800832F (0000ms, 0648ms total)
T5884 191:786 JLINK_ReadReg(R15 (PC))  returns 0x08008296 (0000ms, 0648ms total)
T5884 191:786 JLINK_ReadReg(XPSR)  returns 0x61000000 (0000ms, 0648ms total)
T5884 191:786 JLINK_ReadReg(MSP)  returns 0x200004B0 (0000ms, 0648ms total)
T5884 191:786 JLINK_ReadReg(PSP)  returns 0x20001000 (0000ms, 0648ms total)
T5884 191:786 JLINK_ReadReg(CFBP)  returns 0x00000000 (0000ms, 0648ms total)
T1C20 191:790 JLINK_ReadMemU32(0xE0001004, 0x0001 Items, ...) - Data: 32 7C A6 2C  returns 0x01 (0000ms, 0648ms total)
T1C20 191:795 JLINK_ReadMem (0x08008296, 0x0002 Bytes, ...) -- Read from C cache (2 bytes @ 0x08008296) - Data: F9 F7  returns 0x00 (0000ms, 0648ms total)
T1C20 191:795 JLINK_ReadMem (0x08008298, 0x003C Bytes, ...) -- Read from C cache (60 bytes @ 0x08008298) - Data: BF FB 04 90 01 F0 34 FA 83 90 20 46 00 F0 B2 F9 ...  returns 0x00 (0000ms, 0648ms total)
T5884 192:616 JLINK_SetBPEx(Addr = 0x0800829A, Type = 0xFFFFFFF2)  returns 0x00000006 (0000ms, 0648ms total)
T5884 192:616 JLINK_SetBPEx(Addr = 0x08008318, Type = 0xFFFFFFF2)  returns 0x00000007 (0000ms, 0648ms total)
T5884 192:616 JLINK_Go() -- CPU_WriteMem(4 bytes @ 0xE0002000) -- CPU_WriteMem(4 bytes @ 0xE0002000) -- CPU_WriteMem(4 bytes @ 0xE0002008) -- CPU_WriteMem(4 bytes @ 0xE0001004) (0003ms, 0651ms total)
T5884 192:720 JLINK_IsHalted()  returns TRUE (0002ms, 0653ms total)
T5884 192:722 JLINK_Halt()  returns 0x00 (0000ms, 0651ms total)
T5884 192:722 JLINK_IsHalted()  returns TRUE (0000ms, 0651ms total)
T5884 192:722 JLINK_IsHalted()  returns TRUE (0000ms, 0651ms total)
T5884 192:722 JLINK_IsHalted()  returns TRUE (0000ms, 0651ms total)
T5884 192:722 JLINK_ReadReg(R15 (PC))  returns 0x0800829A (0000ms, 0651ms total)
T5884 192:723 JLINK_ReadReg(XPSR)  returns 0x21000000 (0000ms, 0651ms total)
T5884 192:723 JLINK_ClrBPEx(BPHandle = 0x00000006)  returns 0x00 (0000ms, 0651ms total)
T5884 192:723 JLINK_ClrBPEx(BPHandle = 0x00000007)  returns 0x00 (0000ms, 0651ms total)
T5884 192:723 JLINK_ReadMemU32(0xE000ED30, 0x0001 Items, ...) -- CPU_ReadMem(4 bytes @ 0xE000ED30) - Data: 02 00 00 00  returns 0x01 (0001ms, 0652ms total)
T5884 192:724 JLINK_ReadMemU32(0xE0001028, 0x0001 Items, ...) -- CPU_ReadMem(4 bytes @ 0xE0001028) - Data: 00 00 00 00  returns 0x01 (0001ms, 0653ms total)
T5884 192:725 JLINK_ReadMemU32(0xE0001038, 0x0001 Items, ...) -- CPU_ReadMem(4 bytes @ 0xE0001038) - Data: 00 02 00 00  returns 0x01 (0000ms, 0653ms total)
T5884 192:725 JLINK_ReadMemU32(0xE0001048, 0x0001 Items, ...) -- CPU_ReadMem(4 bytes @ 0xE0001048) - Data: 00 00 00 00  returns 0x01 (0001ms, 0654ms total)
T5884 192:726 JLINK_ReadMemU32(0xE0001058, 0x0001 Items, ...) -- CPU_ReadMem(4 bytes @ 0xE0001058) - Data: 00 00 00 00  returns 0x01 (0001ms, 0655ms total)
T5884 192:727 JLINK_ReadReg(R0)  returns 0x0000021A (0000ms, 0655ms total)
T5884 192:727 JLINK_ReadReg(R1)  returns 0x00000088 (0000ms, 0655ms total)
T5884 192:727 JLINK_ReadReg(R2)  returns 0x00000016 (0000ms, 0655ms total)
T5884 192:727 JLINK_ReadReg(R3)  returns 0x000006DB (0000ms, 0655ms total)
T5884 192:727 JLINK_ReadReg(R4)  returns 0x00000006 (0000ms, 0655ms total)
T5884 192:727 JLINK_ReadReg(R5)  returns 0x00000001 (0000ms, 0655ms total)
T5884 192:727 JLINK_ReadReg(R6)  returns 0x00000000 (0001ms, 0656ms total)
T5884 192:728 JLINK_ReadReg(R7)  returns 0x00000002 (0000ms, 0656ms total)
T5884 192:728 JLINK_ReadReg(R8)  returns 0x00000000 (0000ms, 0656ms total)
T5884 192:728 JLINK_ReadReg(R9)  returns 0x00000001 (0000ms, 0656ms total)
T5884 192:728 JLINK_ReadReg(R10)  returns 0x00000000 (0000ms, 0656ms total)
T5884 192:728 JLINK_ReadReg(R11)  returns 0x00000000 (0000ms, 0656ms total)
T5884 192:728 JLINK_ReadReg(R12)  returns 0x00000025 (0000ms, 0656ms total)
T5884 192:728 JLINK_ReadReg(R13 (SP))  returns 0x200004B0 (0000ms, 0656ms total)
T5884 192:728 JLINK_ReadReg(R14)  returns 0x08001A5F (0001ms, 0657ms total)
